
T21E0 000:293 SEGGER J-Link V4.98e Log File (0001ms, 0265ms total)
T21E0 000:293 DLL Compiled: May  5 2015 11:00:52 (0001ms, 0265ms total)
T21E0 000:293 Logging started @ 2015-06-06 17:34 (0001ms, 0265ms total)
T21E0 000:294 JLINK_SetWarnOutHandler(...) (0000ms, 0265ms total)
T21E0 000:294 JLINK_OpenEx(...)
Firmware: J-Link OB-SAM3U128-V2-NordicSemi compiled May  4 2015 13:48:48
Hardware: V1.00
S/N: 680980579  returns O.K. (0265ms, 0530ms total)
T21E0 000:559 JLINK_SetErrorOutHandler(...) (0000ms, 0530ms total)
T21E0 000:559 JLINK_ExecCommand("ProjectFile = "C:\Users\pc\Documents1\ble_peripheral\Nordic_nRF51822\pca10028\s110\arm5\JLinkSettings.ini"", ...)  returns 0x00 (0002ms, 0532ms total)
T21E0 000:562 JLINK_ExecCommand("Device = nRF51422_xxAC", ...)Device "NRF51422_XXAC" selected.  returns 0x00 (0002ms, 0534ms total)
T21E0 000:564 JLINK_ExecCommand("DisableConnectionTimeout", ...)  returns 0x01 (0000ms, 0534ms total)
T21E0 000:564 JLINK_GetHardwareVersion()  returns 0x2710 (0000ms, 0534ms total)
T21E0 000:564 JLINK_GetDLLVersion()  returns 49805 (0000ms, 0534ms total)
T21E0 000:564 JLINK_GetFirmwareString(...) (0000ms, 0534ms total)
T21E0 000:567 JLINK_GetDLLVersion()  returns 49805 (0000ms, 0534ms total)
T21E0 000:567 JLINK_GetCompileDateTime() (0000ms, 0534ms total)
T21E0 000:569 JLINK_GetFirmwareString(...) (0000ms, 0534ms total)
T21E0 000:570 JLINK_GetHardwareVersion()  returns 0x2710 (0000ms, 0534ms total)
T21E0 000:574 JLINK_TIF_Select(JLINKARM_TIF_SWD)  returns 0x00 (0001ms, 0535ms total)
T21E0 000:575 JLINK_SetSpeed(5000) (0000ms, 0535ms total)
T21E0 000:575 JLINK_GetId() >0x108 TIF>Found SWD-DP with ID 0x0BB11477 >0x35 TIF> >0x0D TIF> >0x28 TIF> >0x0D TIF> >0x28 TIF> >0x35 TIF> >0x0D TIF> >0x28 TIF> >0x35 TIF> >0x35 TIF> >0x35 TIF> >0x0D TIF> >0x28 TIF> >0x0D TIF> >0x28 TIF> >0x0D TIF> >0x28 TIF> >0x35 TIF> >0x35 TIF> >0x35 TIF> >0x0D TIF> >0x28 TIF> >0x0D TIF> >0x28 TIF> >0x35 TIF> >0x0D TIF> >0x28 TIF> >0x0D TIF> >0x28 TIF> >0x0D TIF> >0x28 TIF> >0x35 TIF> >0x35 TIF> >0x0D TIF> >0x28 TIF> >0x35 TIF> >0x35 TIF>
Found Cortex-M0 r0p0, Little endian. -- CPU_WriteMem(4 bytes @ 0xE0002000) -- CPU_ReadMem(4 bytes @ 0xE000EDF0) -- CPU_WriteMem(4 bytes @ 0xE000EDF0) -- CPU_ReadMem(4 bytes @ 0xE0002000)FPUnit: 4 code (BP) slots and 0 literal slots -- CPU_ReadMem(4 bytes @ 0xE000EDFC) -- CPU_WriteMem(4 bytes @ 0xE000EDFC) -- CPU_ReadMem(4 bytes @ 0xE0001000) -- CPU_WriteMem(4 bytes @ 0xE0001000)CoreSight components:ROMTbl 0 @ F0000000 -- CPU_ReadMem(16 bytes @ 0xF0000000) -- CPU_ReadMem(16 bytes @ 0xE00FFFF0)
 -- CPU_ReadMem(16 bytes @ 0xE00FFFE0)ROMTbl 0 [0]: F00FF000, CID: B105100D, PID: 000BB471 ROM TableROMTbl 1 @ E00FF000 -- CPU_ReadMem(16 bytes @ 0xE00FF000) -- CPU_ReadMem(16 bytes @ 0xE000EFF0) -- CPU_ReadMem(16 bytes @ 0xE000EFE0)ROMTbl 1 [0]: FFF0F000, CID: B105E00D, PID: 000BB008 SCS -- CPU_ReadMem(16 bytes @ 0xE0001FF0) -- CPU_ReadMem(16 bytes @ 0xE0001FE0)ROMTbl 1 [1]: FFF02000, CID: B105E00D, PID: 000BB00A DWT -- CPU_ReadMem(16 bytes @ 0xE0002FF0) -- CPU_ReadMem(16 bytes @ 0xE0002FE0)
ROMTbl 1 [2]: FFF03000, CID: B105E00D, PID: 000BB00B FPB -- CPU_ReadMem(16 bytes @ 0xF0002FF0) -- CPU_ReadMem(16 bytes @ 0xF0002FE0)ROMTbl 0 [1]: 00002000, CID: B105900D, PID: 000BB9A3 ??? >0x35 TIF>  returns 0x0BB11477 (0043ms, 0578ms total)
T21E0 000:618 JLINK_GetDLLVersion()  returns 49805 (0000ms, 0578ms total)
T21E0 000:618 JLINK_CORE_GetFound()  returns 0x60000FF (0000ms, 0578ms total)
T21E0 000:618 JLINK_GetDebugInfo(0x100) -- Value=0xF0000003  returns 0x00 (0000ms, 0578ms total)
T21E0 000:620 JLINK_ReadMem (0xF0000000, 0x0020 Bytes, ...) -- CPU is running -- CPU_ReadMem(32 bytes @ 0xF0000000) - Data: 03 F0 0F F0 03 20 00 00 00 00 00 00 00 00 00 00 ...  returns 0x00 (0001ms, 0579ms total)
T21E0 000:621 JLINK_ReadMem (0xE00FFFF0, 0x0010 Bytes, ...) -- CPU is running -- CPU_ReadMem(16 bytes @ 0xE00FFFF0) - Data: 0D 00 00 00 10 00 00 00 05 00 00 00 B1 00 00 00  returns 0x00 (0001ms, 0580ms total)
T21E0 000:622 JLINK_ReadMem (0xE00FFFD0, 0x0020 Bytes, ...) -- CPU is running -- CPU_ReadMem(32 bytes @ 0xE00FFFD0) - Data: 04 00 00 00 00 00 00 00 00 00 00 00 00 00 00 00 ...  returns 0x00 (0001ms, 0581ms total)
T21E0 000:623 JLINK_ReadMem (0xE00FF000, 0x0020 Bytes, ...) -- CPU is running -- CPU_ReadMem(32 bytes @ 0xE00FF000) - Data: 03 F0 F0 FF 03 20 F0 FF 03 30 F0 FF 00 00 00 00 ...  returns 0x00 (0001ms, 0582ms total)
T21E0 000:624 JLINK_ReadMem (0xE000EFF0, 0x0010 Bytes, ...) -- CPU is running -- CPU_ReadMem(16 bytes @ 0xE000EFF0) - Data: 0D 00 00 00 E0 00 00 00 05 00 00 00 B1 00 00 00  returns 0x00 (0000ms, 0582ms total)
T21E0 000:624 JLINK_ReadMem (0xE000EFD0, 0x0020 Bytes, ...) -- CPU is running -- CPU_ReadMem(32 bytes @ 0xE000EFD0) - Data: 04 00 00 00 00 00 00 00 00 00 00 00 00 00 00 00 ...  returns 0x00 (0001ms, 0583ms total)
T21E0 000:625 JLINK_ReadMem (0xE0001FF0, 0x0010 Bytes, ...) -- CPU is running -- CPU_ReadMem(16 bytes @ 0xE0001FF0) - Data: 0D 00 00 00 E0 00 00 00 05 00 00 00 B1 00 00 00  returns 0x00 (0001ms, 0584ms total)
T21E0 000:626 JLINK_ReadMem (0xE0001FD0, 0x0020 Bytes, ...) -- CPU is running -- CPU_ReadMem(32 bytes @ 0xE0001FD0) - Data: 04 00 00 00 00 00 00 00 00 00 00 00 00 00 00 00 ...  returns 0x00 (0001ms, 0585ms total)
T21E0 000:627 JLINK_ReadMem (0xE0002FF0, 0x0010 Bytes, ...) -- CPU is running -- CPU_ReadMem(16 bytes @ 0xE0002FF0) - Data: 0D 00 00 00 E0 00 00 00 05 00 00 00 B1 00 00 00  returns 0x00 (0001ms, 0586ms total)
T21E0 000:628 JLINK_ReadMem (0xE0002FD0, 0x0020 Bytes, ...) -- CPU is running -- CPU_ReadMem(32 bytes @ 0xE0002FD0) - Data: 04 00 00 00 00 00 00 00 00 00 00 00 00 00 00 00 ...  returns 0x00 (0001ms, 0587ms total)
T21E0 000:629 JLINK_ReadMem (0xF0002FF0, 0x0010 Bytes, ...) -- CPU is running -- CPU_ReadMem(16 bytes @ 0xF0002FF0) - Data: 0D 00 00 00 90 00 00 00 05 00 00 00 B1 00 00 00  returns 0x00 (0001ms, 0588ms total)
T21E0 000:630 JLINK_ReadMem (0xF0002FD0, 0x0020 Bytes, ...) -- CPU is running -- CPU_ReadMem(32 bytes @ 0xF0002FD0) - Data: 04 00 00 00 00 00 00 00 00 00 00 00 00 00 00 00 ...  returns 0x00 (0001ms, 0589ms total)
T21E0 000:631 JLINK_ReadMemU32(0xE000ED00, 0x0001 Items, ...) -- CPU is running -- CPU_ReadMem(4 bytes @ 0xE000ED00) - Data: 00 C2 0C 41  returns 0x01 (0001ms, 0590ms total)
T21E0 000:632 JLINK_SetResetType(JLINKARM_RESET_TYPE_NORMAL)  returns JLINKARM_RESET_TYPE_NORMAL (0000ms, 0590ms total)
T21E0 000:632 JLINK_Reset() -- CPU is running -- CPU_WriteMem(4 bytes @ 0xE000EDF0) -- CPU is running -- CPU_WriteMem(4 bytes @ 0xE000EDFC) >0x35 TIF> -- CPU is running -- CPU_WriteMem(4 bytes @ 0xE000ED0C) -- CPU is running -- CPU_ReadMem(4 bytes @ 0xE000EDF0) -- CPU is running -- CPU_ReadMem(4 bytes @ 0xE000EDF0) -- CPU is running -- CPU_WriteMem(4 bytes @ 0xE000EDF0) -- CPU is running -- CPU_WriteMem(4 bytes @ 0xE000EDFC) -- CPU is running -- CPU_ReadMem(4 bytes @ 0xE000EDF0)
 -- CPU_WriteMem(4 bytes @ 0xE0002000) -- CPU_ReadMem(4 bytes @ 0xE000EDFC) -- CPU_ReadMem(4 bytes @ 0xE0001000) -- CPU_WriteMem(4 bytes @ 0xE0001000) (0023ms, 0613ms total)
T21E0 000:655 JLINK_Halt()  returns 0x00 (0000ms, 0613ms total)
T21E0 000:655 JLINK_IsHalted()  returns TRUE (0000ms, 0613ms total)
T21E0 000:655 JLINK_ReadMemU32(0xE000EDF0, 0x0001 Items, ...) -- CPU_ReadMem(4 bytes @ 0xE000EDF0) - Data: 03 00 03 00  returns 0x01 (0001ms, 0614ms total)
T21E0 000:656 JLINK_WriteU32(0xE000EDF0, 0xA05F0003) -- CPU_WriteMem(4 bytes @ 0xE000EDF0)  returns 0x00 (0000ms, 0614ms total)
T21E0 000:656 JLINK_WriteU32(0xE000EDFC, 0x01000000) -- CPU_WriteMem(4 bytes @ 0xE000EDFC)  returns 0x00 (0001ms, 0615ms total)
T21E0 000:660 JLINK_GetHWStatus(...)  returns 0x00 (0001ms, 0616ms total)
T21E0 000:663 JLINK_GetNumBPUnits(Type = 0xFFFFFF00)  returns 0x04 (0000ms, 0616ms total)
T21E0 000:663 JLINK_GetNumBPUnits(Type = 0xF0)  returns 0x2000 (0000ms, 0616ms total)
T21E0 000:663 JLINK_GetNumWPUnits()  returns 0x02 (0000ms, 0616ms total)
T21E0 000:666 JLINK_GetSpeed()  returns 0x3E8 (0000ms, 0616ms total)
T21E0 000:667 JLINK_ReadMemU32(0xE000E004, 0x0001 Items, ...) -- CPU_ReadMem(4 bytes @ 0xE000E004) - Data: 00 00 00 00  returns 0x01 (0001ms, 0617ms total)
T21E0 000:668 JLINK_Halt()  returns 0x00 (0000ms, 0617ms total)
T21E0 000:668 JLINK_IsHalted()  returns TRUE (0000ms, 0617ms total)
T21E0 000:670 JLINK_WriteMem(0x20000000, 0x0478 Bytes, ...) - Data: 00 BE 0A E0 0D 78 2D 06 68 40 08 24 40 00 00 D3 ... -- CPU_WriteMem(1144 bytes @ 0x20000000)  returns 0x478 (0017ms, 0634ms total)
T21E0 000:687 JLINK_WriteReg(R0, 0x00000000)  returns 0x00 (0000ms, 0634ms total)
T21E0 000:687 JLINK_WriteReg(R1, 0x00F42400)  returns 0x00 (0000ms, 0634ms total)
T21E0 000:687 JLINK_WriteReg(R2, 0x00000001)  returns 0x00 (0000ms, 0634ms total)
T21E0 000:687 JLINK_WriteReg(R3, 0x00000000)  returns 0x00 (0000ms, 0634ms total)
T21E0 000:687 JLINK_WriteReg(R4, 0x00000000)  returns 0x00 (0000ms, 0634ms total)
T21E0 000:687 JLINK_WriteReg(R5, 0x00000000)  returns 0x00 (0000ms, 0634ms total)
T21E0 000:687 JLINK_WriteReg(R6, 0x00000000)  returns 0x00 (0000ms, 0634ms total)
T21E0 000:687 JLINK_WriteReg(R7, 0x00000000)  returns 0x00 (0000ms, 0634ms total)
T21E0 000:687 JLINK_WriteReg(R8, 0x00000000)  returns 0x00 (0000ms, 0634ms total)
T21E0 000:687 JLINK_WriteReg(R9, 0x20000474)  returns 0x00 (0000ms, 0634ms total)
T21E0 000:687 JLINK_WriteReg(R10, 0x00000000)  returns 0x00 (0000ms, 0634ms total)
T21E0 000:687 JLINK_WriteReg(R11, 0x00000000)  returns 0x00 (0000ms, 0634ms total)
T21E0 000:687 JLINK_WriteReg(R12, 0x00000000)  returns 0x00 (0000ms, 0634ms total)
T21E0 000:687 JLINK_WriteReg(R13 (SP), 0x20002000)  returns 0x00 (0000ms, 0634ms total)
T21E0 000:687 JLINK_WriteReg(R14, 0x20000001)  returns 0x00 (0000ms, 0634ms total)
T21E0 000:687 JLINK_WriteReg(R15 (PC), 0x20000028)  returns 0x00 (0000ms, 0634ms total)
T21E0 000:687 JLINK_WriteReg(XPSR, 0x01000000)  returns 0x00 (0000ms, 0634ms total)
T21E0 000:687 JLINK_WriteReg(MSP, 0x20002000)  returns 0x00 (0000ms, 0634ms total)
T21E0 000:687 JLINK_WriteReg(PSP, 0x20002000)  returns 0x00 (0000ms, 0634ms total)
T21E0 000:687 JLINK_WriteReg(CFBP, 0x00000000)  returns 0x00 (0000ms, 0634ms total)
T21E0 000:687 JLINK_SetBPEx(Addr = 0x20000000, Type = 0xFFFFFFF2) -- CPU_ReadMem(2 bytes @ 0x20000000)  returns 0x00000001 (0001ms, 0635ms total)
T21E0 000:688 JLINK_Go() -- CPU_WriteMem(2 bytes @ 0x20000000) -- CPU_ReadMem(4 bytes @ 0xE0001000) -- CPU_WriteMem(4 bytes @ 0xE0001000) -- CPU_WriteMem(4 bytes @ 0xE0002008) -- CPU_WriteMem(4 bytes @ 0xE000200C) -- CPU_WriteMem(4 bytes @ 0xE0002010) -- CPU_WriteMem(4 bytes @ 0xE0002014) -- CPU_WriteMem(4 bytes @ 0xE0001004) (0009ms, 0644ms total)
T21E0 000:697 JLINK_IsHalted() -- CPU_ReadMem(2 bytes @ 0x20000000)  returns TRUE (0005ms, 0649ms total)
T21E0 000:702 JLINK_ReadReg(R15 (PC))  returns 0x20000000 (0000ms, 0644ms total)
T21E0 000:702 JLINK_ClrBPEx(BPHandle = 0x00000001)  returns 0x00 (0000ms, 0644ms total)
T21E0 000:702 JLINK_ReadReg(R0)  returns 0x00000000 (0000ms, 0644ms total)
T21E0 000:703 JLINK_WriteReg(R0, 0x00018000)  returns 0x00 (0000ms, 0644ms total)
T21E0 000:703 JLINK_WriteReg(R1, 0x00000400)  returns 0x00 (0000ms, 0644ms total)
T21E0 000:703 JLINK_WriteReg(R2, 0x000000FF)  returns 0x00 (0000ms, 0644ms total)
T21E0 000:703 JLINK_WriteReg(R3, 0x00000000)  returns 0x00 (0000ms, 0644ms total)
T21E0 000:703 JLINK_WriteReg(R4, 0x00000000)  returns 0x00 (0000ms, 0644ms total)
T21E0 000:703 JLINK_WriteReg(R5, 0x00000000)  returns 0x00 (0000ms, 0644ms total)
T21E0 000:703 JLINK_WriteReg(R6, 0x00000000)  returns 0x00 (0000ms, 0644ms total)
T21E0 000:703 JLINK_WriteReg(R7, 0x00000000)  returns 0x00 (0000ms, 0644ms total)
T21E0 000:703 JLINK_WriteReg(R8, 0x00000000)  returns 0x00 (0000ms, 0644ms total)
T21E0 000:703 JLINK_WriteReg(R9, 0x20000474)  returns 0x00 (0000ms, 0644ms total)
T21E0 000:703 JLINK_WriteReg(R10, 0x00000000)  returns 0x00 (0000ms, 0644ms total)
T21E0 000:703 JLINK_WriteReg(R11, 0x00000000)  returns 0x00 (0000ms, 0644ms total)
T21E0 000:703 JLINK_WriteReg(R12, 0x00000000)  returns 0x00 (0000ms, 0644ms total)
T21E0 000:703 JLINK_WriteReg(R13 (SP), 0x20002000)  returns 0x00 (0000ms, 0644ms total)
T21E0 000:703 JLINK_WriteReg(R14, 0x20000001)  returns 0x00 (0000ms, 0644ms total)
T21E0 000:703 JLINK_WriteReg(R15 (PC), 0x20000188)  returns 0x00 (0000ms, 0644ms total)
T21E0 000:703 JLINK_WriteReg(XPSR, 0x01000000)  returns 0x00 (0000ms, 0644ms total)
T21E0 000:703 JLINK_WriteReg(MSP, 0x20002000)  returns 0x00 (0000ms, 0644ms total)
T21E0 000:703 JLINK_WriteReg(PSP, 0x20002000)  returns 0x00 (0000ms, 0644ms total)
T21E0 000:703 JLINK_WriteReg(CFBP, 0x00000000)  returns 0x00 (0000ms, 0644ms total)
T21E0 000:703 JLINK_SetBPEx(Addr = 0x20000000, Type = 0xFFFFFFF2)  returns 0x00000002 (0000ms, 0644ms total)
T21E0 000:703 JLINK_Go() -- CPU_ReadMem(4 bytes @ 0xE0001000) -- CPU_WriteMem(4 bytes @ 0xE0001000) (0004ms, 0648ms total)
T21E0 000:707 JLINK_IsHalted()  returns FALSE (0000ms, 0648ms total)
T21E0 000:724 JLINK_IsHalted() -- CPU_ReadMem(2 bytes @ 0x20000000)  returns TRUE (0005ms, 0653ms total)
T21E0 000:729 JLINK_ReadReg(R15 (PC))  returns 0x20000000 (0000ms, 0648ms total)
T21E0 000:729 JLINK_ClrBPEx(BPHandle = 0x00000002)  returns 0x00 (0000ms, 0648ms total)
T21E0 000:729 JLINK_ReadReg(R0)  returns 0x00000000 (0000ms, 0648ms total)
T21E0 000:729 JLINK_WriteReg(R0, 0x00018400)  returns 0x00 (0000ms, 0648ms total)
T21E0 000:729 JLINK_WriteReg(R1, 0x00000400)  returns 0x00 (0000ms, 0648ms total)
T21E0 000:729 JLINK_WriteReg(R2, 0x000000FF)  returns 0x00 (0000ms, 0648ms total)
T21E0 000:729 JLINK_WriteReg(R3, 0x00000000)  returns 0x00 (0001ms, 0649ms total)
T21E0 000:730 JLINK_WriteReg(R4, 0x00000000)  returns 0x00 (0000ms, 0649ms total)
T21E0 000:730 JLINK_WriteReg(R5, 0x00000000)  returns 0x00 (0000ms, 0649ms total)
T21E0 000:730 JLINK_WriteReg(R6, 0x00000000)  returns 0x00 (0000ms, 0649ms total)
T21E0 000:730 JLINK_WriteReg(R7, 0x00000000)  returns 0x00 (0000ms, 0649ms total)
T21E0 000:730 JLINK_WriteReg(R8, 0x00000000)  returns 0x00 (0000ms, 0649ms total)
T21E0 000:730 JLINK_WriteReg(R9, 0x20000474)  returns 0x00 (0000ms, 0649ms total)
T21E0 000:730 JLINK_WriteReg(R10, 0x00000000)  returns 0x00 (0000ms, 0649ms total)
T21E0 000:730 JLINK_WriteReg(R11, 0x00000000)  returns 0x00 (0000ms, 0649ms total)
T21E0 000:730 JLINK_WriteReg(R12, 0x00000000)  returns 0x00 (0000ms, 0649ms total)
T21E0 000:730 JLINK_WriteReg(R13 (SP), 0x20002000)  returns 0x00 (0000ms, 0649ms total)
T21E0 000:730 JLINK_WriteReg(R14, 0x20000001)  returns 0x00 (0000ms, 0649ms total)
T21E0 000:730 JLINK_WriteReg(R15 (PC), 0x20000188)  returns 0x00 (0000ms, 0649ms total)
T21E0 000:730 JLINK_WriteReg(XPSR, 0x01000000)  returns 0x00 (0000ms, 0649ms total)
T21E0 000:730 JLINK_WriteReg(MSP, 0x20002000)  returns 0x00 (0000ms, 0649ms total)
T21E0 000:730 JLINK_WriteReg(PSP, 0x20002000)  returns 0x00 (0000ms, 0649ms total)
T21E0 000:730 JLINK_WriteReg(CFBP, 0x00000000)  returns 0x00 (0000ms, 0649ms total)
T21E0 000:730 JLINK_SetBPEx(Addr = 0x20000000, Type = 0xFFFFFFF2)  returns 0x00000003 (0000ms, 0649ms total)
T21E0 000:730 JLINK_Go() -- CPU_ReadMem(4 bytes @ 0xE0001000) -- CPU_WriteMem(4 bytes @ 0xE0001000) (0003ms, 0652ms total)
T21E0 000:734 JLINK_IsHalted() -- CPU_ReadMem(2 bytes @ 0x20000000)  returns TRUE (0005ms, 0658ms total)
T21E0 000:739 JLINK_ReadReg(R15 (PC))  returns 0x20000000 (0000ms, 0653ms total)
T21E0 000:739 JLINK_ClrBPEx(BPHandle = 0x00000003)  returns 0x00 (0000ms, 0653ms total)
T21E0 000:739 JLINK_ReadReg(R0)  returns 0x00000000 (0000ms, 0653ms total)
T21E0 000:739 JLINK_WriteReg(R0, 0x00018800)  returns 0x00 (0000ms, 0653ms total)
T21E0 000:739 JLINK_WriteReg(R1, 0x00000400)  returns 0x00 (0000ms, 0653ms total)
T21E0 000:739 JLINK_WriteReg(R2, 0x000000FF)  returns 0x00 (0000ms, 0653ms total)
T21E0 000:739 JLINK_WriteReg(R3, 0x00000000)  returns 0x00 (0000ms, 0653ms total)
T21E0 000:739 JLINK_WriteReg(R4, 0x00000000)  returns 0x00 (0000ms, 0653ms total)
T21E0 000:739 JLINK_WriteReg(R5, 0x00000000)  returns 0x00 (0000ms, 0653ms total)
T21E0 000:740 JLINK_WriteReg(R6, 0x00000000)  returns 0x00 (0000ms, 0654ms total)
T21E0 000:740 JLINK_WriteReg(R7, 0x00000000)  returns 0x00 (0000ms, 0654ms total)
T21E0 000:740 JLINK_WriteReg(R8, 0x00000000)  returns 0x00 (0000ms, 0654ms total)
T21E0 000:740 JLINK_WriteReg(R9, 0x20000474)  returns 0x00 (0000ms, 0654ms total)
T21E0 000:740 JLINK_WriteReg(R10, 0x00000000)  returns 0x00 (0000ms, 0654ms total)
T21E0 000:740 JLINK_WriteReg(R11, 0x00000000)  returns 0x00 (0000ms, 0654ms total)
T21E0 000:740 JLINK_WriteReg(R12, 0x00000000)  returns 0x00 (0000ms, 0654ms total)
T21E0 000:740 JLINK_WriteReg(R13 (SP), 0x20002000)  returns 0x00 (0000ms, 0654ms total)
T21E0 000:740 JLINK_WriteReg(R14, 0x20000001)  returns 0x00 (0000ms, 0654ms total)
T21E0 000:740 JLINK_WriteReg(R15 (PC), 0x20000188)  returns 0x00 (0000ms, 0654ms total)
T21E0 000:740 JLINK_WriteReg(XPSR, 0x01000000)  returns 0x00 (0000ms, 0654ms total)
T21E0 000:740 JLINK_WriteReg(MSP, 0x20002000)  returns 0x00 (0000ms, 0654ms total)
T21E0 000:740 JLINK_WriteReg(PSP, 0x20002000)  returns 0x00 (0000ms, 0654ms total)
T21E0 000:740 JLINK_WriteReg(CFBP, 0x00000000)  returns 0x00 (0000ms, 0654ms total)
T21E0 000:740 JLINK_SetBPEx(Addr = 0x20000000, Type = 0xFFFFFFF2)  returns 0x00000004 (0000ms, 0654ms total)
T21E0 000:740 JLINK_Go() -- CPU_ReadMem(4 bytes @ 0xE0001000) -- CPU_WriteMem(4 bytes @ 0xE0001000) (0004ms, 0658ms total)
T21E0 000:744 JLINK_IsHalted() -- CPU_ReadMem(2 bytes @ 0x20000000)  returns TRUE (0005ms, 0663ms total)
T21E0 000:749 JLINK_ReadReg(R15 (PC))  returns 0x20000000 (0000ms, 0658ms total)
T21E0 000:749 JLINK_ClrBPEx(BPHandle = 0x00000004)  returns 0x00 (0000ms, 0658ms total)
T21E0 000:749 JLINK_ReadReg(R0)  returns 0x00000000 (0000ms, 0658ms total)
T21E0 000:749 JLINK_WriteReg(R0, 0x00018C00)  returns 0x00 (0000ms, 0658ms total)
T21E0 000:749 JLINK_WriteReg(R1, 0x00000400)  returns 0x00 (0000ms, 0658ms total)
T21E0 000:749 JLINK_WriteReg(R2, 0x000000FF)  returns 0x00 (0000ms, 0658ms total)
T21E0 000:749 JLINK_WriteReg(R3, 0x00000000)  returns 0x00 (0000ms, 0658ms total)
T21E0 000:749 JLINK_WriteReg(R4, 0x00000000)  returns 0x00 (0000ms, 0658ms total)
T21E0 000:749 JLINK_WriteReg(R5, 0x00000000)  returns 0x00 (0000ms, 0658ms total)
T21E0 000:749 JLINK_WriteReg(R6, 0x00000000)  returns 0x00 (0000ms, 0658ms total)
T21E0 000:749 JLINK_WriteReg(R7, 0x00000000)  returns 0x00 (0000ms, 0658ms total)
T21E0 000:749 JLINK_WriteReg(R8, 0x00000000)  returns 0x00 (0000ms, 0658ms total)
T21E0 000:749 JLINK_WriteReg(R9, 0x20000474)  returns 0x00 (0000ms, 0658ms total)
T21E0 000:749 JLINK_WriteReg(R10, 0x00000000)  returns 0x00 (0000ms, 0658ms total)
T21E0 000:749 JLINK_WriteReg(R11, 0x00000000)  returns 0x00 (0000ms, 0658ms total)
T21E0 000:749 JLINK_WriteReg(R12, 0x00000000)  returns 0x00 (0000ms, 0658ms total)
T21E0 000:749 JLINK_WriteReg(R13 (SP), 0x20002000)  returns 0x00 (0000ms, 0658ms total)
T21E0 000:749 JLINK_WriteReg(R14, 0x20000001)  returns 0x00 (0000ms, 0658ms total)
T21E0 000:749 JLINK_WriteReg(R15 (PC), 0x20000188)  returns 0x00 (0000ms, 0658ms total)
T21E0 000:749 JLINK_WriteReg(XPSR, 0x01000000)  returns 0x00 (0000ms, 0658ms total)
T21E0 000:749 JLINK_WriteReg(MSP, 0x20002000)  returns 0x00 (0000ms, 0658ms total)
T21E0 000:749 JLINK_WriteReg(PSP, 0x20002000)  returns 0x00 (0000ms, 0658ms total)
T21E0 000:749 JLINK_WriteReg(CFBP, 0x00000000)  returns 0x00 (0000ms, 0658ms total)
T21E0 000:749 JLINK_SetBPEx(Addr = 0x20000000, Type = 0xFFFFFFF2)  returns 0x00000005 (0000ms, 0658ms total)
T21E0 000:749 JLINK_Go() -- CPU_ReadMem(4 bytes @ 0xE0001000) -- CPU_WriteMem(4 bytes @ 0xE0001000) (0004ms, 0662ms total)
T21E0 000:753 JLINK_IsHalted() -- CPU_ReadMem(2 bytes @ 0x20000000)  returns TRUE (0006ms, 0668ms total)
T21E0 000:759 JLINK_ReadReg(R15 (PC))  returns 0x20000000 (0000ms, 0662ms total)
T21E0 000:759 JLINK_ClrBPEx(BPHandle = 0x00000005)  returns 0x00 (0000ms, 0662ms total)
T21E0 000:759 JLINK_ReadReg(R0)  returns 0x00000000 (0000ms, 0662ms total)
T21E0 000:759 JLINK_WriteReg(R0, 0x00019000)  returns 0x00 (0000ms, 0662ms total)
T21E0 000:759 JLINK_WriteReg(R1, 0x00000400)  returns 0x00 (0000ms, 0662ms total)
T21E0 000:759 JLINK_WriteReg(R2, 0x000000FF)  returns 0x00 (0000ms, 0662ms total)
T21E0 000:759 JLINK_WriteReg(R3, 0x00000000)  returns 0x00 (0000ms, 0662ms total)
T21E0 000:759 JLINK_WriteReg(R4, 0x00000000)  returns 0x00 (0000ms, 0662ms total)
T21E0 000:759 JLINK_WriteReg(R5, 0x00000000)  returns 0x00 (0000ms, 0662ms total)
T21E0 000:759 JLINK_WriteReg(R6, 0x00000000)  returns 0x00 (0000ms, 0662ms total)
T21E0 000:759 JLINK_WriteReg(R7, 0x00000000)  returns 0x00 (0000ms, 0662ms total)
T21E0 000:759 JLINK_WriteReg(R8, 0x00000000)  returns 0x00 (0000ms, 0662ms total)
T21E0 000:759 JLINK_WriteReg(R9, 0x20000474)  returns 0x00 (0000ms, 0662ms total)
T21E0 000:759 JLINK_WriteReg(R10, 0x00000000)  returns 0x00 (0000ms, 0662ms total)
T21E0 000:759 JLINK_WriteReg(R11, 0x00000000)  returns 0x00 (0000ms, 0662ms total)
T21E0 000:759 JLINK_WriteReg(R12, 0x00000000)  returns 0x00 (0000ms, 0662ms total)
T21E0 000:759 JLINK_WriteReg(R13 (SP), 0x20002000)  returns 0x00 (0000ms, 0662ms total)
T21E0 000:759 JLINK_WriteReg(R14, 0x20000001)  returns 0x00 (0000ms, 0662ms total)
T21E0 000:759 JLINK_WriteReg(R15 (PC), 0x20000188)  returns 0x00 (0000ms, 0662ms total)
T21E0 000:759 JLINK_WriteReg(XPSR, 0x01000000)  returns 0x00 (0000ms, 0662ms total)
T21E0 000:759 JLINK_WriteReg(MSP, 0x20002000)  returns 0x00 (0000ms, 0662ms total)
T21E0 000:759 JLINK_WriteReg(PSP, 0x20002000)  returns 0x00 (0000ms, 0662ms total)
T21E0 000:759 JLINK_WriteReg(CFBP, 0x00000000)  returns 0x00 (0000ms, 0662ms total)
T21E0 000:759 JLINK_SetBPEx(Addr = 0x20000000, Type = 0xFFFFFFF2)  returns 0x00000006 (0000ms, 0662ms total)
T21E0 000:759 JLINK_Go() -- CPU_ReadMem(4 bytes @ 0xE0001000) -- CPU_WriteMem(4 bytes @ 0xE0001000) (0004ms, 0666ms total)
T21E0 000:763 JLINK_IsHalted()  returns FALSE (0001ms, 0667ms total)
T21E0 000:766 JLINK_IsHalted() -- CPU_ReadMem(2 bytes @ 0x20000000)  returns TRUE (0004ms, 0670ms total)
T21E0 000:770 JLINK_ReadReg(R15 (PC))  returns 0x20000000 (0000ms, 0666ms total)
T21E0 000:770 JLINK_ClrBPEx(BPHandle = 0x00000006)  returns 0x00 (0000ms, 0666ms total)
T21E0 000:770 JLINK_ReadReg(R0)  returns 0x00000000 (0001ms, 0667ms total)
T21E0 000:771 JLINK_WriteReg(R0, 0x00019400)  returns 0x00 (0000ms, 0667ms total)
T21E0 000:771 JLINK_WriteReg(R1, 0x00000400)  returns 0x00 (0000ms, 0667ms total)
T21E0 000:771 JLINK_WriteReg(R2, 0x000000FF)  returns 0x00 (0000ms, 0667ms total)
T21E0 000:771 JLINK_WriteReg(R3, 0x00000000)  returns 0x00 (0000ms, 0667ms total)
T21E0 000:771 JLINK_WriteReg(R4, 0x00000000)  returns 0x00 (0000ms, 0667ms total)
T21E0 000:771 JLINK_WriteReg(R5, 0x00000000)  returns 0x00 (0000ms, 0667ms total)
T21E0 000:771 JLINK_WriteReg(R6, 0x00000000)  returns 0x00 (0000ms, 0667ms total)
T21E0 000:771 JLINK_WriteReg(R7, 0x00000000)  returns 0x00 (0000ms, 0667ms total)
T21E0 000:771 JLINK_WriteReg(R8, 0x00000000)  returns 0x00 (0000ms, 0667ms total)
T21E0 000:771 JLINK_WriteReg(R9, 0x20000474)  returns 0x00 (0000ms, 0667ms total)
T21E0 000:771 JLINK_WriteReg(R10, 0x00000000)  returns 0x00 (0000ms, 0667ms total)
T21E0 000:771 JLINK_WriteReg(R11, 0x00000000)  returns 0x00 (0001ms, 0668ms total)
T21E0 000:772 JLINK_WriteReg(R12, 0x00000000)  returns 0x00 (0000ms, 0668ms total)
T21E0 000:772 JLINK_WriteReg(R13 (SP), 0x20002000)  returns 0x00 (0000ms, 0668ms total)
T21E0 000:772 JLINK_WriteReg(R14, 0x20000001)  returns 0x00 (0000ms, 0668ms total)
T21E0 000:772 JLINK_WriteReg(R15 (PC), 0x20000188)  returns 0x00 (0000ms, 0668ms total)
T21E0 000:772 JLINK_WriteReg(XPSR, 0x01000000)  returns 0x00 (0000ms, 0668ms total)
T21E0 000:772 JLINK_WriteReg(MSP, 0x20002000)  returns 0x00 (0000ms, 0668ms total)
T21E0 000:772 JLINK_WriteReg(PSP, 0x20002000)  returns 0x00 (0000ms, 0668ms total)
T21E0 000:772 JLINK_WriteReg(CFBP, 0x00000000)  returns 0x00 (0000ms, 0668ms total)
T21E0 000:772 JLINK_SetBPEx(Addr = 0x20000000, Type = 0xFFFFFFF2)  returns 0x00000007 (0000ms, 0668ms total)
T21E0 000:772 JLINK_Go() -- CPU_ReadMem(4 bytes @ 0xE0001000) -- CPU_WriteMem(4 bytes @ 0xE0001000) (0004ms, 0672ms total)
T21E0 000:776 JLINK_IsHalted() -- CPU_ReadMem(2 bytes @ 0x20000000)  returns TRUE (0005ms, 0677ms total)
T21E0 000:781 JLINK_ReadReg(R15 (PC))  returns 0x20000000 (0000ms, 0672ms total)
T21E0 000:781 JLINK_ClrBPEx(BPHandle = 0x00000007)  returns 0x00 (0000ms, 0672ms total)
T21E0 000:781 JLINK_ReadReg(R0)  returns 0x00000000 (0000ms, 0672ms total)
T21E0 000:782 JLINK_WriteReg(R0, 0x00019800)  returns 0x00 (0000ms, 0672ms total)
T21E0 000:782 JLINK_WriteReg(R1, 0x00000400)  returns 0x00 (0000ms, 0672ms total)
T21E0 000:782 JLINK_WriteReg(R2, 0x000000FF)  returns 0x00 (0000ms, 0672ms total)
T21E0 000:782 JLINK_WriteReg(R3, 0x00000000)  returns 0x00 (0000ms, 0672ms total)
T21E0 000:782 JLINK_WriteReg(R4, 0x00000000)  returns 0x00 (0000ms, 0672ms total)
T21E0 000:782 JLINK_WriteReg(R5, 0x00000000)  returns 0x00 (0000ms, 0672ms total)
T21E0 000:782 JLINK_WriteReg(R6, 0x00000000)  returns 0x00 (0000ms, 0672ms total)
T21E0 000:782 JLINK_WriteReg(R7, 0x00000000)  returns 0x00 (0000ms, 0672ms total)
T21E0 000:782 JLINK_WriteReg(R8, 0x00000000)  returns 0x00 (0000ms, 0672ms total)
T21E0 000:782 JLINK_WriteReg(R9, 0x20000474)  returns 0x00 (0000ms, 0672ms total)
T21E0 000:782 JLINK_WriteReg(R10, 0x00000000)  returns 0x00 (0000ms, 0672ms total)
T21E0 000:782 JLINK_WriteReg(R11, 0x00000000)  returns 0x00 (0000ms, 0672ms total)
T21E0 000:782 JLINK_WriteReg(R12, 0x00000000)  returns 0x00 (0000ms, 0672ms total)
T21E0 000:782 JLINK_WriteReg(R13 (SP), 0x20002000)  returns 0x00 (0000ms, 0672ms total)
T21E0 000:782 JLINK_WriteReg(R14, 0x20000001)  returns 0x00 (0000ms, 0672ms total)
T21E0 000:782 JLINK_WriteReg(R15 (PC), 0x20000188)  returns 0x00 (0000ms, 0672ms total)
T21E0 000:782 JLINK_WriteReg(XPSR, 0x01000000)  returns 0x00 (0000ms, 0672ms total)
T21E0 000:782 JLINK_WriteReg(MSP, 0x20002000)  returns 0x00 (0000ms, 0672ms total)
T21E0 000:782 JLINK_WriteReg(PSP, 0x20002000)  returns 0x00 (0000ms, 0672ms total)
T21E0 000:782 JLINK_WriteReg(CFBP, 0x00000000)  returns 0x00 (0000ms, 0672ms total)
T21E0 000:782 JLINK_SetBPEx(Addr = 0x20000000, Type = 0xFFFFFFF2)  returns 0x00000008 (0000ms, 0672ms total)
T21E0 000:782 JLINK_Go() -- CPU_ReadMem(4 bytes @ 0xE0001000) -- CPU_WriteMem(4 bytes @ 0xE0001000) (0004ms, 0676ms total)
T21E0 000:786 JLINK_IsHalted() -- CPU_ReadMem(2 bytes @ 0x20000000)  returns TRUE (0005ms, 0681ms total)
T21E0 000:791 JLINK_ReadReg(R15 (PC))  returns 0x20000000 (0000ms, 0676ms total)
T21E0 000:791 JLINK_ClrBPEx(BPHandle = 0x00000008)  returns 0x00 (0000ms, 0676ms total)
T21E0 000:791 JLINK_ReadReg(R0)  returns 0x00000000 (0000ms, 0676ms total)
T21E0 000:792 JLINK_WriteReg(R0, 0x00019C00)  returns 0x00 (0000ms, 0676ms total)
T21E0 000:792 JLINK_WriteReg(R1, 0x00000400)  returns 0x00 (0000ms, 0676ms total)
T21E0 000:792 JLINK_WriteReg(R2, 0x000000FF)  returns 0x00 (0000ms, 0676ms total)
T21E0 000:792 JLINK_WriteReg(R3, 0x00000000)  returns 0x00 (0000ms, 0676ms total)
T21E0 000:792 JLINK_WriteReg(R4, 0x00000000)  returns 0x00 (0000ms, 0676ms total)
T21E0 000:792 JLINK_WriteReg(R5, 0x00000000)  returns 0x00 (0000ms, 0676ms total)
T21E0 000:792 JLINK_WriteReg(R6, 0x00000000)  returns 0x00 (0000ms, 0676ms total)
T21E0 000:792 JLINK_WriteReg(R7, 0x00000000)  returns 0x00 (0000ms, 0676ms total)
T21E0 000:792 JLINK_WriteReg(R8, 0x00000000)  returns 0x00 (0000ms, 0676ms total)
T21E0 000:792 JLINK_WriteReg(R9, 0x20000474)  returns 0x00 (0000ms, 0676ms total)
T21E0 000:792 JLINK_WriteReg(R10, 0x00000000)  returns 0x00 (0000ms, 0676ms total)
T21E0 000:792 JLINK_WriteReg(R11, 0x00000000)  returns 0x00 (0000ms, 0676ms total)
T21E0 000:792 JLINK_WriteReg(R12, 0x00000000)  returns 0x00 (0000ms, 0676ms total)
T21E0 000:792 JLINK_WriteReg(R13 (SP), 0x20002000)  returns 0x00 (0000ms, 0676ms total)
T21E0 000:792 JLINK_WriteReg(R14, 0x20000001)  returns 0x00 (0000ms, 0676ms total)
T21E0 000:793 JLINK_WriteReg(R15 (PC), 0x20000188)  returns 0x00 (0000ms, 0676ms total)
T21E0 000:793 JLINK_WriteReg(XPSR, 0x01000000)  returns 0x00 (0000ms, 0676ms total)
T21E0 000:793 JLINK_WriteReg(MSP, 0x20002000)  returns 0x00 (0000ms, 0676ms total)
T21E0 000:793 JLINK_WriteReg(PSP, 0x20002000)  returns 0x00 (0000ms, 0676ms total)
T21E0 000:793 JLINK_WriteReg(CFBP, 0x00000000)  returns 0x00 (0000ms, 0676ms total)
T21E0 000:793 JLINK_SetBPEx(Addr = 0x20000000, Type = 0xFFFFFFF2)  returns 0x00000009 (0000ms, 0676ms total)
T21E0 000:793 JLINK_Go() -- CPU_ReadMem(4 bytes @ 0xE0001000) -- CPU_WriteMem(4 bytes @ 0xE0001000) (0003ms, 0679ms total)
T21E0 000:796 JLINK_IsHalted() -- CPU_ReadMem(2 bytes @ 0x20000000)  returns TRUE (0006ms, 0685ms total)
T21E0 000:802 JLINK_ReadReg(R15 (PC))  returns 0x20000000 (0000ms, 0679ms total)
T21E0 000:802 JLINK_ClrBPEx(BPHandle = 0x00000009)  returns 0x00 (0000ms, 0679ms total)
T21E0 000:802 JLINK_ReadReg(R0)  returns 0x00000000 (0000ms, 0679ms total)
T21E0 000:803 JLINK_WriteReg(R0, 0x0001A000)  returns 0x00 (0000ms, 0679ms total)
T21E0 000:803 JLINK_WriteReg(R1, 0x00000400)  returns 0x00 (0000ms, 0679ms total)
T21E0 000:803 JLINK_WriteReg(R2, 0x000000FF)  returns 0x00 (0000ms, 0679ms total)
T21E0 000:803 JLINK_WriteReg(R3, 0x00000000)  returns 0x00 (0000ms, 0679ms total)
T21E0 000:803 JLINK_WriteReg(R4, 0x00000000)  returns 0x00 (0000ms, 0679ms total)
T21E0 000:803 JLINK_WriteReg(R5, 0x00000000)  returns 0x00 (0000ms, 0679ms total)
T21E0 000:803 JLINK_WriteReg(R6, 0x00000000)  returns 0x00 (0000ms, 0679ms total)
T21E0 000:803 JLINK_WriteReg(R7, 0x00000000)  returns 0x00 (0000ms, 0679ms total)
T21E0 000:803 JLINK_WriteReg(R8, 0x00000000)  returns 0x00 (0000ms, 0679ms total)
T21E0 000:803 JLINK_WriteReg(R9, 0x20000474)  returns 0x00 (0000ms, 0679ms total)
T21E0 000:803 JLINK_WriteReg(R10, 0x00000000)  returns 0x00 (0000ms, 0679ms total)
T21E0 000:803 JLINK_WriteReg(R11, 0x00000000)  returns 0x00 (0000ms, 0679ms total)
T21E0 000:803 JLINK_WriteReg(R12, 0x00000000)  returns 0x00 (0000ms, 0679ms total)
T21E0 000:803 JLINK_WriteReg(R13 (SP), 0x20002000)  returns 0x00 (0000ms, 0679ms total)
T21E0 000:803 JLINK_WriteReg(R14, 0x20000001)  returns 0x00 (0000ms, 0679ms total)
T21E0 000:803 JLINK_WriteReg(R15 (PC), 0x20000188)  returns 0x00 (0000ms, 0679ms total)
T21E0 000:803 JLINK_WriteReg(XPSR, 0x01000000)  returns 0x00 (0000ms, 0679ms total)
T21E0 000:803 JLINK_WriteReg(MSP, 0x20002000)  returns 0x00 (0000ms, 0679ms total)
T21E0 000:803 JLINK_WriteReg(PSP, 0x20002000)  returns 0x00 (0000ms, 0679ms total)
T21E0 000:803 JLINK_WriteReg(CFBP, 0x00000000)  returns 0x00 (0000ms, 0679ms total)
T21E0 000:804 JLINK_SetBPEx(Addr = 0x20000000, Type = 0xFFFFFFF2)  returns 0x0000000A (0000ms, 0679ms total)
T21E0 000:804 JLINK_Go() -- CPU_ReadMem(4 bytes @ 0xE0001000) -- CPU_WriteMem(4 bytes @ 0xE0001000) (0003ms, 0682ms total)
T21E0 000:807 JLINK_IsHalted() -- CPU_ReadMem(2 bytes @ 0x20000000)  returns TRUE (0006ms, 0688ms total)
T21E0 000:813 JLINK_ReadReg(R15 (PC))  returns 0x20000000 (0000ms, 0682ms total)
T21E0 000:813 JLINK_ClrBPEx(BPHandle = 0x0000000A)  returns 0x00 (0000ms, 0682ms total)
T21E0 000:813 JLINK_ReadReg(R0)  returns 0x00000000 (0000ms, 0682ms total)
T21E0 000:813 JLINK_WriteReg(R0, 0x0001A400)  returns 0x00 (0000ms, 0682ms total)
T21E0 000:813 JLINK_WriteReg(R1, 0x00000400)  returns 0x00 (0000ms, 0682ms total)
T21E0 000:813 JLINK_WriteReg(R2, 0x000000FF)  returns 0x00 (0000ms, 0682ms total)
T21E0 000:813 JLINK_WriteReg(R3, 0x00000000)  returns 0x00 (0000ms, 0682ms total)
T21E0 000:813 JLINK_WriteReg(R4, 0x00000000)  returns 0x00 (0000ms, 0682ms total)
T21E0 000:813 JLINK_WriteReg(R5, 0x00000000)  returns 0x00 (0000ms, 0682ms total)
T21E0 000:813 JLINK_WriteReg(R6, 0x00000000)  returns 0x00 (0000ms, 0682ms total)
T21E0 000:813 JLINK_WriteReg(R7, 0x00000000)  returns 0x00 (0001ms, 0683ms total)
T21E0 000:814 JLINK_WriteReg(R8, 0x00000000)  returns 0x00 (0000ms, 0683ms total)
T21E0 000:814 JLINK_WriteReg(R9, 0x20000474)  returns 0x00 (0000ms, 0683ms total)
T21E0 000:814 JLINK_WriteReg(R10, 0x00000000)  returns 0x00 (0000ms, 0683ms total)
T21E0 000:814 JLINK_WriteReg(R11, 0x00000000)  returns 0x00 (0000ms, 0683ms total)
T21E0 000:814 JLINK_WriteReg(R12, 0x00000000)  returns 0x00 (0000ms, 0683ms total)
T21E0 000:814 JLINK_WriteReg(R13 (SP), 0x20002000)  returns 0x00 (0000ms, 0683ms total)
T21E0 000:814 JLINK_WriteReg(R14, 0x20000001)  returns 0x00 (0000ms, 0683ms total)
T21E0 000:814 JLINK_WriteReg(R15 (PC), 0x20000188)  returns 0x00 (0000ms, 0683ms total)
T21E0 000:814 JLINK_WriteReg(XPSR, 0x01000000)  returns 0x00 (0000ms, 0683ms total)
T21E0 000:814 JLINK_WriteReg(MSP, 0x20002000)  returns 0x00 (0000ms, 0683ms total)
T21E0 000:814 JLINK_WriteReg(PSP, 0x20002000)  returns 0x00 (0000ms, 0683ms total)
T21E0 000:814 JLINK_WriteReg(CFBP, 0x00000000)  returns 0x00 (0000ms, 0683ms total)
T21E0 000:814 JLINK_SetBPEx(Addr = 0x20000000, Type = 0xFFFFFFF2)  returns 0x0000000B (0000ms, 0683ms total)
T21E0 000:814 JLINK_Go() -- CPU_ReadMem(4 bytes @ 0xE0001000) -- CPU_WriteMem(4 bytes @ 0xE0001000) (0004ms, 0687ms total)
T21E0 000:818 JLINK_IsHalted() -- CPU_ReadMem(2 bytes @ 0x20000000)  returns TRUE (0005ms, 0692ms total)
T21E0 000:823 JLINK_ReadReg(R15 (PC))  returns 0x20000000 (0000ms, 0687ms total)
T21E0 000:823 JLINK_ClrBPEx(BPHandle = 0x0000000B)  returns 0x00 (0000ms, 0687ms total)
T21E0 000:823 JLINK_ReadReg(R0)  returns 0x00000000 (0000ms, 0687ms total)
T21E0 000:823 JLINK_WriteReg(R0, 0x00000001)  returns 0x00 (0000ms, 0687ms total)
T21E0 000:823 JLINK_WriteReg(R1, 0x00000400)  returns 0x00 (0000ms, 0687ms total)
T21E0 000:823 JLINK_WriteReg(R2, 0x000000FF)  returns 0x00 (0000ms, 0687ms total)
T21E0 000:823 JLINK_WriteReg(R3, 0x00000000)  returns 0x00 (0000ms, 0687ms total)
T21E0 000:823 JLINK_WriteReg(R4, 0x00000000)  returns 0x00 (0000ms, 0687ms total)
T21E0 000:823 JLINK_WriteReg(R5, 0x00000000)  returns 0x00 (0000ms, 0687ms total)
T21E0 000:823 JLINK_WriteReg(R6, 0x00000000)  returns 0x00 (0001ms, 0688ms total)
T21E0 000:824 JLINK_WriteReg(R7, 0x00000000)  returns 0x00 (0000ms, 0688ms total)
T21E0 000:824 JLINK_WriteReg(R8, 0x00000000)  returns 0x00 (0000ms, 0688ms total)
T21E0 000:824 JLINK_WriteReg(R9, 0x20000474)  returns 0x00 (0000ms, 0688ms total)
T21E0 000:824 JLINK_WriteReg(R10, 0x00000000)  returns 0x00 (0000ms, 0688ms total)
T21E0 000:824 JLINK_WriteReg(R11, 0x00000000)  returns 0x00 (0000ms, 0688ms total)
T21E0 000:824 JLINK_WriteReg(R12, 0x00000000)  returns 0x00 (0000ms, 0688ms total)
T21E0 000:824 JLINK_WriteReg(R13 (SP), 0x20002000)  returns 0x00 (0000ms, 0688ms total)
T21E0 000:824 JLINK_WriteReg(R14, 0x20000001)  returns 0x00 (0000ms, 0688ms total)
T21E0 000:824 JLINK_WriteReg(R15 (PC), 0x20000058)  returns 0x00 (0000ms, 0688ms total)
T21E0 000:824 JLINK_WriteReg(XPSR, 0x01000000)  returns 0x00 (0000ms, 0688ms total)
T21E0 000:824 JLINK_WriteReg(MSP, 0x20002000)  returns 0x00 (0000ms, 0688ms total)
T21E0 000:824 JLINK_WriteReg(PSP, 0x20002000)  returns 0x00 (0000ms, 0688ms total)
T21E0 000:824 JLINK_WriteReg(CFBP, 0x00000000)  returns 0x00 (0000ms, 0688ms total)
T21E0 000:824 JLINK_SetBPEx(Addr = 0x20000000, Type = 0xFFFFFFF2)  returns 0x0000000C (0000ms, 0688ms total)
T21E0 000:824 JLINK_Go() -- CPU_ReadMem(4 bytes @ 0xE0001000) -- CPU_WriteMem(4 bytes @ 0xE0001000) (0004ms, 0692ms total)
T21E0 000:828 JLINK_IsHalted() -- CPU_ReadMem(2 bytes @ 0x20000000)  returns TRUE (0005ms, 0697ms total)
T21E0 000:833 JLINK_ReadReg(R15 (PC))  returns 0x20000000 (0000ms, 0692ms total)
T21E0 000:833 JLINK_ClrBPEx(BPHandle = 0x0000000C)  returns 0x00 (0000ms, 0692ms total)
T21E0 000:833 JLINK_ReadReg(R0)  returns 0x00000000 (0000ms, 0692ms total)
T21E0 000:889 JLINK_WriteMem(0x20000000, 0x0478 Bytes, ...) - Data: 00 BE 0A E0 0D 78 2D 06 68 40 08 24 40 00 00 D3 ... -- CPU_WriteMem(1144 bytes @ 0x20000000)  returns 0x478 (0017ms, 0709ms total)
T21E0 000:906 JLINK_WriteReg(R0, 0x00000000)  returns 0x00 (0000ms, 0709ms total)
T21E0 000:906 JLINK_WriteReg(R1, 0x00F42400)  returns 0x00 (0000ms, 0709ms total)
T21E0 000:906 JLINK_WriteReg(R2, 0x00000002)  returns 0x00 (0000ms, 0709ms total)
T21E0 000:906 JLINK_WriteReg(R3, 0x00000000)  returns 0x00 (0000ms, 0709ms total)
T21E0 000:906 JLINK_WriteReg(R4, 0x00000000)  returns 0x00 (0000ms, 0709ms total)
T21E0 000:906 JLINK_WriteReg(R5, 0x00000000)  returns 0x00 (0000ms, 0709ms total)
T21E0 000:906 JLINK_WriteReg(R6, 0x00000000)  returns 0x00 (0000ms, 0709ms total)
T21E0 000:906 JLINK_WriteReg(R7, 0x00000000)  returns 0x00 (0000ms, 0709ms total)
T21E0 000:906 JLINK_WriteReg(R8, 0x00000000)  returns 0x00 (0000ms, 0709ms total)
T21E0 000:906 JLINK_WriteReg(R9, 0x20000474)  returns 0x00 (0000ms, 0709ms total)
T21E0 000:906 JLINK_WriteReg(R10, 0x00000000)  returns 0x00 (0000ms, 0709ms total)
T21E0 000:906 JLINK_WriteReg(R11, 0x00000000)  returns 0x00 (0000ms, 0709ms total)
T21E0 000:906 JLINK_WriteReg(R12, 0x00000000)  returns 0x00 (0000ms, 0709ms total)
T21E0 000:906 JLINK_WriteReg(R13 (SP), 0x20002000)  returns 0x00 (0000ms, 0709ms total)
T21E0 000:906 JLINK_WriteReg(R14, 0x20000001)  returns 0x00 (0000ms, 0709ms total)
T21E0 000:906 JLINK_WriteReg(R15 (PC), 0x20000028)  returns 0x00 (0000ms, 0709ms total)
T21E0 000:906 JLINK_WriteReg(XPSR, 0x01000000)  returns 0x00 (0000ms, 0709ms total)
T21E0 000:906 JLINK_WriteReg(MSP, 0x20002000)  returns 0x00 (0000ms, 0709ms total)
T21E0 000:906 JLINK_WriteReg(PSP, 0x20002000)  returns 0x00 (0000ms, 0709ms total)
T21E0 000:906 JLINK_WriteReg(CFBP, 0x00000000)  returns 0x00 (0000ms, 0709ms total)
T21E0 000:906 JLINK_SetBPEx(Addr = 0x20000000, Type = 0xFFFFFFF2) -- CPU_ReadMem(2 bytes @ 0x20000000)  returns 0x0000000D (0002ms, 0711ms total)
T21E0 000:908 JLINK_Go() -- CPU_WriteMem(2 bytes @ 0x20000000) -- CPU_ReadMem(4 bytes @ 0xE0001000) -- CPU_WriteMem(4 bytes @ 0xE0001000) (0004ms, 0715ms total)
T21E0 000:912 JLINK_IsHalted() -- CPU_ReadMem(2 bytes @ 0x20000000)  returns TRUE (0006ms, 0721ms total)
T21E0 000:918 JLINK_ReadReg(R15 (PC))  returns 0x20000000 (0000ms, 0715ms total)
T21E0 000:918 JLINK_ClrBPEx(BPHandle = 0x0000000D)  returns 0x00 (0000ms, 0715ms total)
T21E0 000:918 JLINK_ReadReg(R0)  returns 0x00000000 (0000ms, 0715ms total)
T21E0 000:918 JLINK_WriteMem(0x20000478, 0x0388 Bytes, ...) - Data: B8 30 00 20 F5 80 01 00 0F 81 01 00 11 81 01 00 ... -- CPU_WriteMem(904 bytes @ 0x20000478)  returns 0x388 (0013ms, 0728ms total)
T21E0 000:931 JLINK_WriteMem(0x20000800, 0x0078 Bytes, ...) - Data: 99 FA 06 E0 02 98 01 F0 95 FA 00 28 01 D1 00 2C ... -- CPU_WriteMem(120 bytes @ 0x20000800)  returns 0x78 (0002ms, 0730ms total)
T21E0 000:933 JLINK_WriteReg(R0, 0x00018000)  returns 0x00 (0001ms, 0731ms total)
T21E0 000:934 JLINK_WriteReg(R1, 0x00000400)  returns 0x00 (0000ms, 0731ms total)
T21E0 000:934 JLINK_WriteReg(R2, 0x20000478)  returns 0x00 (0000ms, 0731ms total)
T21E0 000:934 JLINK_WriteReg(R3, 0x00000000)  returns 0x00 (0000ms, 0731ms total)
T21E0 000:934 JLINK_WriteReg(R4, 0x00000000)  returns 0x00 (0000ms, 0731ms total)
T21E0 000:934 JLINK_WriteReg(R5, 0x00000000)  returns 0x00 (0000ms, 0731ms total)
T21E0 000:934 JLINK_WriteReg(R6, 0x00000000)  returns 0x00 (0000ms, 0731ms total)
T21E0 000:934 JLINK_WriteReg(R7, 0x00000000)  returns 0x00 (0000ms, 0731ms total)
T21E0 000:934 JLINK_WriteReg(R8, 0x00000000)  returns 0x00 (0000ms, 0731ms total)
T21E0 000:934 JLINK_WriteReg(R9, 0x20000474)  returns 0x00 (0000ms, 0731ms total)
T21E0 000:934 JLINK_WriteReg(R10, 0x00000000)  returns 0x00 (0000ms, 0731ms total)
T21E0 000:934 JLINK_WriteReg(R11, 0x00000000)  returns 0x00 (0000ms, 0731ms total)
T21E0 000:934 JLINK_WriteReg(R12, 0x00000000)  returns 0x00 (0000ms, 0731ms total)
T21E0 000:934 JLINK_WriteReg(R13 (SP), 0x20002000)  returns 0x00 (0000ms, 0731ms total)
T21E0 000:934 JLINK_WriteReg(R14, 0x20000001)  returns 0x00 (0000ms, 0731ms total)
T21E0 000:934 JLINK_WriteReg(R15 (PC), 0x200001C4)  returns 0x00 (0000ms, 0731ms total)
T21E0 000:934 JLINK_WriteReg(XPSR, 0x01000000)  returns 0x00 (0000ms, 0731ms total)
T21E0 000:934 JLINK_WriteReg(MSP, 0x20002000)  returns 0x00 (0000ms, 0731ms total)
T21E0 000:934 JLINK_WriteReg(PSP, 0x20002000)  returns 0x00 (0000ms, 0731ms total)
T21E0 000:934 JLINK_WriteReg(CFBP, 0x00000000)  returns 0x00 (0000ms, 0731ms total)
T21E0 000:934 JLINK_SetBPEx(Addr = 0x20000000, Type = 0xFFFFFFF2)  returns 0x0000000E (0000ms, 0731ms total)
T21E0 000:934 JLINK_Go() -- CPU_ReadMem(4 bytes @ 0xE0001000) -- CPU_WriteMem(4 bytes @ 0xE0001000) (0004ms, 0735ms total)
T21E0 000:938 JLINK_IsHalted()  returns FALSE (0001ms, 0736ms total)
T21E0 000:950 JLINK_IsHalted() -- CPU_ReadMem(2 bytes @ 0x20000000)  returns TRUE (0005ms, 0740ms total)
T21E0 000:955 JLINK_ReadReg(R15 (PC))  returns 0x20000000 (0000ms, 0735ms total)
T21E0 000:955 JLINK_ClrBPEx(BPHandle = 0x0000000E)  returns 0x00 (0000ms, 0735ms total)
T21E0 000:955 JLINK_ReadReg(R0)  returns 0x00000000 (0000ms, 0735ms total)
T21E0 000:956 JLINK_WriteMem(0x20000478, 0x0388 Bytes, ...) - Data: 80 8D 00 06 00 0F 02 D1 05 49 01 20 88 60 10 BD ... -- CPU_WriteMem(904 bytes @ 0x20000478)  returns 0x388 (0012ms, 0747ms total)
T21E0 000:968 JLINK_WriteMem(0x20000800, 0x0078 Bytes, ...) - Data: 69 46 08 70 38 49 37 4E 48 68 C0 05 C0 0D 18 D0 ... -- CPU_WriteMem(120 bytes @ 0x20000800)  returns 0x78 (0003ms, 0750ms total)
T21E0 000:971 JLINK_WriteReg(R0, 0x00018400)  returns 0x00 (0000ms, 0750ms total)
T21E0 000:971 JLINK_WriteReg(R1, 0x00000400)  returns 0x00 (0000ms, 0750ms total)
T21E0 000:971 JLINK_WriteReg(R2, 0x20000478)  returns 0x00 (0000ms, 0750ms total)
T21E0 000:971 JLINK_WriteReg(R3, 0x00000000)  returns 0x00 (0000ms, 0750ms total)
T21E0 000:971 JLINK_WriteReg(R4, 0x00000000)  returns 0x00 (0000ms, 0750ms total)
T21E0 000:971 JLINK_WriteReg(R5, 0x00000000)  returns 0x00 (0000ms, 0750ms total)
T21E0 000:971 JLINK_WriteReg(R6, 0x00000000)  returns 0x00 (0000ms, 0750ms total)
T21E0 000:971 JLINK_WriteReg(R7, 0x00000000)  returns 0x00 (0000ms, 0750ms total)
T21E0 000:971 JLINK_WriteReg(R8, 0x00000000)  returns 0x00 (0000ms, 0750ms total)
T21E0 000:971 JLINK_WriteReg(R9, 0x20000474)  returns 0x00 (0000ms, 0750ms total)
T21E0 000:971 JLINK_WriteReg(R10, 0x00000000)  returns 0x00 (0000ms, 0750ms total)
T21E0 000:971 JLINK_WriteReg(R11, 0x00000000)  returns 0x00 (0000ms, 0750ms total)
T21E0 000:971 JLINK_WriteReg(R12, 0x00000000)  returns 0x00 (0000ms, 0750ms total)
T21E0 000:971 JLINK_WriteReg(R13 (SP), 0x20002000)  returns 0x00 (0000ms, 0750ms total)
T21E0 000:971 JLINK_WriteReg(R14, 0x20000001)  returns 0x00 (0000ms, 0750ms total)
T21E0 000:971 JLINK_WriteReg(R15 (PC), 0x200001C4)  returns 0x00 (0001ms, 0751ms total)
T21E0 000:972 JLINK_WriteReg(XPSR, 0x01000000)  returns 0x00 (0000ms, 0751ms total)
T21E0 000:972 JLINK_WriteReg(MSP, 0x20002000)  returns 0x00 (0000ms, 0751ms total)
T21E0 000:972 JLINK_WriteReg(PSP, 0x20002000)  returns 0x00 (0000ms, 0751ms total)
T21E0 000:972 JLINK_WriteReg(CFBP, 0x00000000)  returns 0x00 (0000ms, 0751ms total)
T21E0 000:972 JLINK_SetBPEx(Addr = 0x20000000, Type = 0xFFFFFFF2)  returns 0x0000000F (0000ms, 0751ms total)
T21E0 000:972 JLINK_Go() -- CPU_ReadMem(4 bytes @ 0xE0001000) -- CPU_WriteMem(4 bytes @ 0xE0001000) (0004ms, 0755ms total)
T21E0 000:976 JLINK_IsHalted()  returns FALSE (0000ms, 0755ms total)
T21E0 000:979 JLINK_IsHalted()  returns FALSE (0000ms, 0755ms total)
T21E0 000:981 JLINK_IsHalted()  returns FALSE (0000ms, 0755ms total)
T21E0 000:982 JLINK_IsHalted()  returns FALSE (0000ms, 0755ms total)
T21E0 000:985 JLINK_IsHalted()  returns FALSE (0000ms, 0755ms total)
T21E0 000:986 JLINK_IsHalted()  returns FALSE (0000ms, 0755ms total)
T21E0 000:987 JLINK_IsHalted() -- CPU_ReadMem(2 bytes @ 0x20000000)  returns TRUE (0005ms, 0760ms total)
T21E0 000:992 JLINK_ReadReg(R15 (PC))  returns 0x20000000 (0000ms, 0755ms total)
T21E0 000:992 JLINK_ClrBPEx(BPHandle = 0x0000000F)  returns 0x00 (0000ms, 0755ms total)
T21E0 000:992 JLINK_ReadReg(R0)  returns 0x00000000 (0000ms, 0755ms total)
T21E0 000:993 JLINK_WriteMem(0x20000478, 0x0388 Bytes, ...) - Data: 01 DA 40 1C 00 E0 00 20 60 70 01 2D 0B D0 62 B6 ... -- CPU_WriteMem(904 bytes @ 0x20000478)  returns 0x388 (0012ms, 0767ms total)
T21E0 001:005 JLINK_WriteMem(0x20000800, 0x0078 Bytes, ...) - Data: 81 60 30 21 50 38 FF F7 FC FA 37 48 21 78 30 38 ... -- CPU_WriteMem(120 bytes @ 0x20000800)  returns 0x78 (0003ms, 0770ms total)
T21E0 001:008 JLINK_WriteReg(R0, 0x00018800)  returns 0x00 (0000ms, 0770ms total)
T21E0 001:008 JLINK_WriteReg(R1, 0x00000400)  returns 0x00 (0000ms, 0770ms total)
T21E0 001:008 JLINK_WriteReg(R2, 0x20000478)  returns 0x00 (0000ms, 0770ms total)
T21E0 001:008 JLINK_WriteReg(R3, 0x00000000)  returns 0x00 (0000ms, 0770ms total)
T21E0 001:008 JLINK_WriteReg(R4, 0x00000000)  returns 0x00 (0000ms, 0770ms total)
T21E0 001:008 JLINK_WriteReg(R5, 0x00000000)  returns 0x00 (0000ms, 0770ms total)
T21E0 001:008 JLINK_WriteReg(R6, 0x00000000)  returns 0x00 (0000ms, 0770ms total)
T21E0 001:008 JLINK_WriteReg(R7, 0x00000000)  returns 0x00 (0000ms, 0770ms total)
T21E0 001:009 JLINK_WriteReg(R8, 0x00000000)  returns 0x00 (0000ms, 0771ms total)
T21E0 001:009 JLINK_WriteReg(R9, 0x20000474)  returns 0x00 (0000ms, 0771ms total)
T21E0 001:009 JLINK_WriteReg(R10, 0x00000000)  returns 0x00 (0000ms, 0771ms total)
T21E0 001:009 JLINK_WriteReg(R11, 0x00000000)  returns 0x00 (0000ms, 0771ms total)
T21E0 001:009 JLINK_WriteReg(R12, 0x00000000)  returns 0x00 (0000ms, 0771ms total)
T21E0 001:009 JLINK_WriteReg(R13 (SP), 0x20002000)  returns 0x00 (0000ms, 0771ms total)
T21E0 001:009 JLINK_WriteReg(R14, 0x20000001)  returns 0x00 (0000ms, 0771ms total)
T21E0 001:009 JLINK_WriteReg(R15 (PC), 0x200001C4)  returns 0x00 (0000ms, 0771ms total)
T21E0 001:009 JLINK_WriteReg(XPSR, 0x01000000)  returns 0x00 (0000ms, 0771ms total)
T21E0 001:009 JLINK_WriteReg(MSP, 0x20002000)  returns 0x00 (0000ms, 0771ms total)
T21E0 001:009 JLINK_WriteReg(PSP, 0x20002000)  returns 0x00 (0000ms, 0771ms total)
T21E0 001:009 JLINK_WriteReg(CFBP, 0x00000000)  returns 0x00 (0000ms, 0771ms total)
T21E0 001:009 JLINK_SetBPEx(Addr = 0x20000000, Type = 0xFFFFFFF2)  returns 0x00000010 (0000ms, 0771ms total)
T21E0 001:009 JLINK_Go() -- CPU_ReadMem(4 bytes @ 0xE0001000) -- CPU_WriteMem(4 bytes @ 0xE0001000) (0004ms, 0775ms total)
T21E0 001:013 JLINK_IsHalted()  returns FALSE (0001ms, 0776ms total)
T21E0 001:021 JLINK_IsHalted()  returns FALSE (0000ms, 0775ms total)
T21E0 001:022 JLINK_IsHalted()  returns FALSE (0000ms, 0775ms total)
T21E0 001:023 JLINK_IsHalted()  returns FALSE (0000ms, 0775ms total)
T21E0 001:024 JLINK_IsHalted() -- CPU_ReadMem(2 bytes @ 0x20000000)  returns TRUE (0005ms, 0780ms total)
T21E0 001:029 JLINK_ReadReg(R15 (PC))  returns 0x20000000 (0000ms, 0775ms total)
T21E0 001:029 JLINK_ClrBPEx(BPHandle = 0x00000010)  returns 0x00 (0000ms, 0775ms total)
T21E0 001:029 JLINK_ReadReg(R0)  returns 0x00000000 (0000ms, 0775ms total)
T21E0 001:030 JLINK_WriteMem(0x20000478, 0x0388 Bytes, ...) - Data: 11 46 0C 39 8A 60 81 62 A3 6A 9B 88 8B 80 A1 6A ... -- CPU_WriteMem(904 bytes @ 0x20000478)  returns 0x388 (0012ms, 0787ms total)
T21E0 001:042 JLINK_WriteMem(0x20000800, 0x0078 Bytes, ...) - Data: 00 20 C0 43 68 80 6F 70 08 46 FF F7 73 FD 00 28 ... -- CPU_WriteMem(120 bytes @ 0x20000800)  returns 0x78 (0003ms, 0790ms total)
T21E0 001:045 JLINK_WriteReg(R0, 0x00018C00)  returns 0x00 (0000ms, 0790ms total)
T21E0 001:045 JLINK_WriteReg(R1, 0x00000400)  returns 0x00 (0000ms, 0790ms total)
T21E0 001:045 JLINK_WriteReg(R2, 0x20000478)  returns 0x00 (0000ms, 0790ms total)
T21E0 001:045 JLINK_WriteReg(R3, 0x00000000)  returns 0x00 (0000ms, 0790ms total)
T21E0 001:045 JLINK_WriteReg(R4, 0x00000000)  returns 0x00 (0000ms, 0790ms total)
T21E0 001:045 JLINK_WriteReg(R5, 0x00000000)  returns 0x00 (0000ms, 0790ms total)
T21E0 001:045 JLINK_WriteReg(R6, 0x00000000)  returns 0x00 (0000ms, 0790ms total)
T21E0 001:045 JLINK_WriteReg(R7, 0x00000000)  returns 0x00 (0000ms, 0790ms total)
T21E0 001:045 JLINK_WriteReg(R8, 0x00000000)  returns 0x00 (0000ms, 0790ms total)
T21E0 001:045 JLINK_WriteReg(R9, 0x20000474)  returns 0x00 (0000ms, 0790ms total)
T21E0 001:045 JLINK_WriteReg(R10, 0x00000000)  returns 0x00 (0000ms, 0790ms total)
T21E0 001:045 JLINK_WriteReg(R11, 0x00000000)  returns 0x00 (0000ms, 0790ms total)
T21E0 001:045 JLINK_WriteReg(R12, 0x00000000)  returns 0x00 (0000ms, 0790ms total)
T21E0 001:045 JLINK_WriteReg(R13 (SP), 0x20002000)  returns 0x00 (0000ms, 0790ms total)
T21E0 001:045 JLINK_WriteReg(R14, 0x20000001)  returns 0x00 (0000ms, 0790ms total)
T21E0 001:045 JLINK_WriteReg(R15 (PC), 0x200001C4)  returns 0x00 (0000ms, 0790ms total)
T21E0 001:045 JLINK_WriteReg(XPSR, 0x01000000)  returns 0x00 (0000ms, 0790ms total)
T21E0 001:045 JLINK_WriteReg(MSP, 0x20002000)  returns 0x00 (0000ms, 0790ms total)
T21E0 001:045 JLINK_WriteReg(PSP, 0x20002000)  returns 0x00 (0000ms, 0790ms total)
T21E0 001:045 JLINK_WriteReg(CFBP, 0x00000000)  returns 0x00 (0000ms, 0790ms total)
T21E0 001:045 JLINK_SetBPEx(Addr = 0x20000000, Type = 0xFFFFFFF2)  returns 0x00000011 (0000ms, 0790ms total)
T21E0 001:045 JLINK_Go() -- CPU_ReadMem(4 bytes @ 0xE0001000) -- CPU_WriteMem(4 bytes @ 0xE0001000) (0005ms, 0795ms total)
T21E0 001:050 JLINK_IsHalted()  returns FALSE (0000ms, 0795ms total)
T21E0 001:055 JLINK_IsHalted()  returns FALSE (0000ms, 0795ms total)
T21E0 001:056 JLINK_IsHalted()  returns FALSE (0000ms, 0795ms total)
T21E0 001:057 JLINK_IsHalted()  returns FALSE (0000ms, 0795ms total)
T21E0 001:058 JLINK_IsHalted()  returns FALSE (0000ms, 0795ms total)
T21E0 001:059 JLINK_IsHalted()  returns FALSE (0000ms, 0795ms total)
T21E0 001:060 JLINK_IsHalted()  returns FALSE (0000ms, 0795ms total)
T21E0 001:061 JLINK_IsHalted() -- CPU_ReadMem(2 bytes @ 0x20000000)  returns TRUE (0005ms, 0800ms total)
T21E0 001:066 JLINK_ReadReg(R15 (PC))  returns 0x20000000 (0000ms, 0795ms total)
